(1784145968.390186) can0 486#4C00000000009100
(1784145968.414741) can0 701#05
(1784145968.415215) can0 481#0C00000000009100
(1784145968.490201) can0 486#4C00000000009100
(1784145968.515123) can0 49B#0C00000000000000
(1784145968.515599) can0 481#0C00000000009100
(1784145968.590250) can0 486#4C00000000009100
(1784145968.615005) can0 481#0C00000000009100
(1784145968.690238) can0 486#4C00000000009100
(1784145968.714976) can0 49B#0C00000000000000
(1784145968.715423) can0 481#0C00000000009100
(1784145968.790915) can0 186#38DB000008000000
(1784145968.791354) can0 286#E400E90028EB5424
(1784145968.791826) can0 486#4C00000000009100
(1784145968.792228) can0 386#18791879D776
(1784145968.815041) can0 481#0C00000000009100
(1784145968.815175) can0 706#05
(1784145968.891188) can0 486#4C00000000009100
(1784145968.915567) can0 701#05
(1784145968.916012) can0 481#0C00000000009100
(1784145968.916514) can0 49B#0C00000000000000
(1784145968.991173) can0 486#4C00000000009100
(1784145968.995860) can0 181#2FDB00000D000000
(1784145968.996326) can0 19B#18DB00000B000000
(1784145968.996797) can0 29B#E700E90030F20000
(1784145968.997276) can0 39B#30F2000019E40000
(1784145968.997720) can0 381#18791879426D
(1784145968.998125) can0 281#E700E80028EB5424
(1784145969.016004) can0 481#0C00000000009100
(1784145969.091187) can0 486#4C00000000009100
(1784145969.116019) can0 49B#0C00000000000000
(1784145969.116469) can0 481#0C00000000009100
(1784145969.191058) can0 486#4C00000000009100
(1784145969.216011) can0 481#0C00000000009100
(1784145969.291156) can0 486#4C00000000009100
(1784145969.314792) can0 706#05
(1784145969.315969) can0 49B#0C00000000000000
(1784145969.316347) can0 481#0C00000000009100
(1784145969.391053) can0 486#4C00000000009100
(1784145969.415517) can0 701#05
(1784145969.415987) can0 481#0C00000000009100
(1784145969.491130) can0 486#4C00000000009100
(1784145969.515930) can0 49B#0C00000000000000
(1784145969.516417) can0 481#0C00000000009100
(1784145969.591101) can0 486#4C00000000009100
(1784145969.615923) can0 481#0C00000000009100
(1784145969.691110) can0 486#4C00000000009100
(1784145969.715922) can0 49B#0C00000000000000
(1784145969.716382) can0 481#0C00000000009100
(1784145969.791797) can0 186#32DB000007000000
(1784145969.792198) can0 286#E400E90028EB5424
(1784145969.792710) can0 486#4C00000000009100
(1784145969.793073) can0 386#18791879D776
(1784145969.815894) can0 481#0C00000000009100
(1784145969.816117) can0 706#05
(1784145969.892105) can0 486#4C00000000009100
(1784145969.916438) can0 701#05
(1784145969.916904) can0 481#0C00000000009100
(1784145969.917401) can0 49B#0C00000000000000
(1784145969.992055) can0 486#4C00000000009100
(1784145969.996820) can0 181#29DB00000D000000
(1784145969.997171) can0 29B#E700E90030F20000
(1784145969.997664) can0 19B#19DB00000B000000
(1784145969.998146) can0 39B#30F2000019E40000
(1784145969.998590) can0 281#E700E80028EB5424
(1784145969.998990) can0 381#18791879426D
(1784145970.016874) can0 481#0C00000000009100
(1784145970.092053) can0 486#4C00000000009100
(1784145970.116856) can0 49B#0C00000000000000
(1784145970.117321) can0 481#0C00000000009100
(1784145970.192009) can0 486#4C00000000009100
(1784145970.216829) can0 481#0C00000000009100
(1784145970.292002) can0 486#4C00000000009100
(1784145970.315617) can0 706#05
(1784145970.316825) can0 49B#0C00000000000000
(1784145970.317217) can0 481#0C00000000009100
(1784145970.391996) can0 486#4C00000000009100
(1784145970.416427) can0 701#05
(1784145970.416900) can0 481#0C00000000009100
(1784145970.491961) can0 486#4C00000000009100
(1784145970.516828) can0 49B#0C00000000000000
(1784145970.517299) can0 481#0C00000000009100
(1784145970.591861) can0 486#4C00000000009100
(1784145970.616785) can0 481#0C00000000009100
(1784145970.691916) can0 486#4C00000000009100
(1784145970.716766) can0 49B#0C00000000000000
(1784145970.717216) can0 481#0C00000000009100
(1784145970.792716) can0 186#32DB000008000000
(1784145970.793050) can0 286#E400EA0028EB5424
(1784145970.793545) can0 486#4C00000000009100
(1784145970.793924) can0 386#18791879D776
(1784145970.816767) can0 481#0C00000000009100
(1784145970.816946) can0 706#05
(1784145970.892876) can0 486#4C00000000009100
(1784145970.917348) can0 701#05
(1784145970.917804) can0 481#0C00000000009100
(1784145970.918229) can0 49B#0C00000000000000
(1784145970.992877) can0 486#4C00000000009100
(1784145970.997632) can0 181#30DB00000C000000
(1784145970.998044) can0 19B#18DB00000E000000
(1784145970.998510) can0 29B#E700EA0030F20000
(1784145970.999014) can0 39B#30F2000019E40000
(1784145970.999412) can0 381#18791879426D
(1784145970.999842) can0 281#E700E80028EB5424
(1784145971.017708) can0 481#0C00000000009100
(1784145971.092779) can0 486#4C00000000009100
(1784145971.117620) can0 49B#0C00000000000000
(1784145971.118074) can0 481#0C00000000009100
(1784145971.192861) can0 486#4C00000000009100
(1784145971.217659) can0 481#0C00000000009100
(1784145971.292752) can0 486#4C00000000009100
(1784145971.316388) can0 706#05
(1784145971.317589) can0 49B#0C00000000000000
(1784145971.318069) can0 481#0C00000000009100
(1784145971.392758) can0 486#4C00000000009100
(1784145971.417259) can0 701#05
(1784145971.417748) can0 481#0C00000000009100
(1784145971.492813) can0 486#4C00000000009100
(1784145971.517558) can0 49B#0C00000000000000
(1784145971.518025) can0 481#0C00000000009100
(1784145971.592812) can0 486#4C00000000009100
(1784145971.617617) can0 481#0C00000000009100
(1784145971.692754) can0 486#4C00000000009100
(1784145971.717531) can0 49B#0C00000000000000
(1784145971.717981) can0 481#0C00000000009100
(1784145971.793545) can0 186#31DB000009000000
(1784145971.793991) can0 286#E400E90028EB5424
(1784145971.794508) can0 486#4C00000000009100
(1784145971.794792) can0 386#18791879D776
(1784145971.817706) can0 481#0C00000000009100
(1784145971.817904) can0 706#05
(1784145971.893768) can0 486#4C00000000009100
(1784145971.918243) can0 701#05
(1784145971.918700) can0 481#0C00000000009100
(1784145971.919102) can0 49B#0C00000000000000
(1784145971.993828) can0 486#4C00000000009100
(1784145971.998442) can0 181#2BDB00000D000000
(1784145971.998891) can0 29B#E700E90030F20000
(1784145971.999389) can0 19B#14DB00000E000000
(1784145971.999864) can0 39B#30F2000019E40000
(1784145972.000312) can0 281#E700E80028EB5424
(1784145972.000713) can0 381#18791879426D
(1784145972.018568) can0 481#0C00000000009100
(1784145972.093705) can0 486#4C00000000009100
(1784145972.118511) can0 49B#0C00000000000000
(1784145972.118964) can0 481#0C00000000009100
(1784145972.193736) can0 486#4C00000000009100
(1784145972.218485) can0 481#0C00000000009100
(1784145972.293700) can0 486#4C00000000009100
(1784145972.317396) can0 706#05
(1784145972.318523) can0 49B#0C00000000000000
(1784145972.318917) can0 481#0C00000000009100
(1784145972.393720) can0 486#4C00000000009100
(1784145972.418188) can0 701#05
(1784145972.418626) can0 481#0C00000000009100
(1784145972.493728) can0 486#4C00000000009100
(1784145972.518567) can0 49B#0C00000000000000
(1784145972.519031) can0 481#0C00000000009100
(1784145972.593690) can0 486#4C00000000009100
(1784145972.618515) can0 481#0C00000000009100
(1784145972.693640) can0 486#4C00000000009100
(1784145972.718499) can0 49B#0C00000000000000
(1784145972.718956) can0 481#0C00000000009100
(1784145972.797320) can0 186#2FDB000009000000
(1784145972.797725) can0 286#E400EA0028EB5424
(1784145972.798224) can0 486#4C00000000009100
(1784145972.798604) can0 386#18791879D776
(1784145972.818491) can0 481#0C00000000009100
(1784145972.821173) can0 706#05
(1784145972.897643) can0 486#4C00000000009100
(1784145972.921964) can0 701#05
(1784145972.922406) can0 481#0C00000000009100
(1784145972.922840) can0 49B#0C00000000000000
(1784145972.997635) can0 486#4C00000000009100
(1784145973.001274) can0 181#28DB00000C000000
(1784145973.001773) can0 19B#13DB00000B000000
(1784145973.002243) can0 29B#E700EA0030F20000
(1784145973.002698) can0 39B#30F2000019E40000
(1784145973.003116) can0 381#18791879426D
(1784145973.003546) can0 281#E700E80028EB5424
(1784145973.022486) can0 481#0C00000000009100
(1784145973.097601) can0 486#4C00000000009100
(1784145973.122476) can0 49B#0C00000000000000
(1784145973.122893) can0 481#0C00000000009100
(1784145973.197517) can0 486#4C00000000009100
(1784145973.222444) can0 481#0C00000000009100
(1784145973.297497) can0 486#4C00000000009100
(1784145973.321187) can0 706#05
(1784145973.322272) can0 49B#0C00000000000000
(1784145973.322779) can0 481#0C00000000009100
(1784145973.397569) can0 486#4C00000000009100
(1784145973.421023) can0 701#05
(1784145973.422380) can0 481#0C00000000009100
(1784145973.497553) can0 486#4C00000000009100
(1784145973.522288) can0 49B#0C00000000000000
(1784145973.522753) can0 481#0C00000000009100
(1784145973.597593) can0 486#4C00000000009100
(1784145973.622364) can0 481#0C00000000009100
(1784145973.697525) can0 486#4C00000000009100
(1784145973.722357) can0 49B#0C00000000000000
